T34EC 034:308 SEGGER J-Link V5.00a Log File (0001ms, 2527ms total)
T34EC 034:308 DLL Compiled: Jun  9 2015 16:41:14 (0001ms, 2527ms total)
T34EC 034:308 Logging started @ 2022-07-17 20:03 (0001ms, 2527ms total)
T34EC 034:309 JLINK_SetWarnOutHandler(...) (0000ms, 2527ms total)
T34EC 034:309 JLINK_OpenEx(...)
Firmware: J-Link ARM-OB STM32 compiled Aug 22 2012 19:52:04
Hardware: V7.00
S/N: 20090928
Feature(s): RDI,FlashDL,FlashBP,JFlash,GDBFullDevice "CORTEX-M3" selected.  returns O.K. (0274ms, 2801ms total)
T34EC 034:583 JLINK_GetEmuCaps()  returns 0x88EA5833 (0000ms, 2801ms total)
T34EC 034:584 JLINK_TIF_GetAvailable(...) (0000ms, 2801ms total)
T34EC 034:584 JLINK_SetErrorOutHandler(...) (0000ms, 2801ms total)
T34EC 034:584 JLINK_ExecCommand("ProjectFile = "D:\Robomaster\Infantry\Infantry_2022\new_Infantry\Infantry2022\F405_Chassis\User\JLinkSettings.ini"", ...)Device "CORTEX-M3" selected.  returns 0x00 (0005ms, 2806ms total)
T34EC 034:599 JLINK_ExecCommand("Device = STM32F405RG", ...)Device "CORTEX-M3" selected.  returns 0x00 (0005ms, 2811ms total)
T34EC 034:604 JLINK_ExecCommand("DisableConnectionTimeout", ...)  returns 0x01 (0000ms, 2812ms total)
T34EC 034:605 JLINK_GetHardwareVersion()  returns 0x11170 (0000ms, 2812ms total)
T34EC 034:605 JLINK_GetDLLVersion()  returns 50001 (0000ms, 2812ms total)
T34EC 034:605 JLINK_GetFirmwareString(...) (0000ms, 2812ms total)
T34EC 034:617 JLINK_GetDLLVersion()  returns 50001 (0000ms, 2812ms total)
T34EC 034:617 JLINK_GetCompileDateTime() (0000ms, 2812ms total)
T34EC 034:621 JLINK_GetFirmwareString(...) (0000ms, 2812ms total)
T34EC 034:624 JLINK_GetHardwareVersion()  returns 0x11170 (0000ms, 2812ms total)
T34EC 034:638 JLINK_TIF_Select(JLINKARM_TIF_SWD)  returns 0x00 (0000ms, 2812ms total)
T34EC 034:638 JLINK_SetSpeed(50000) (0000ms, 2812ms total)
T34EC 034:638 JLINK_GetId() >0x108 TIF>Found SWD-DP with ID 0x2BA01477 >0x0D TIF> >0x21 TIF> >0x0D TIF> >0x28 TIF> >0x0D TIF> >0x28 TIF> >0x0D TIF> >0x21 TIF> >0x0D TIF> >0x28 TIF> >0x0D TIF> >0x21 TIF> >0x0D TIF> >0x21 TIF> >0x0D TIF> >0x21 TIF> >0x0D TIF> >0x21 TIF> >0x0D TIF> >0x28 TIF> >0x0D TIF> >0x28 TIF> >0x0D TIF> >0x21 TIF> >0x0D TIF> >0x28 TIF> >0x0D TIF> >0x28 TIF> >0x0D TIF> >0x28 TIF> >0x0D TIF> >0x21 TIF> >0x0D TIF> >0x21 TIF> >0x0D TIF> >0x28 TIF> >0x0D TIF> >0x21 TIF> >0x0D TIF>
 >0x21 TIF>Found Cortex-M4 r0p1, Little endian.Identified core does not match configuration. (Found: Cortex-M4, Configured: Cortex-M3) -- CPU_WriteMem(4 bytes @ 0xE0002000) -- CPU_ReadMem(4 bytes @ 0xE000EDF0) -- CPU_WriteMem(4 bytes @ 0xE000EDF0) -- CPU_ReadMem(4 bytes @ 0xE0002000)FPUnit: 6 code (BP) slots and 2 literal slots -- CPU_ReadMem(4 bytes @ 0xE000EDFC) -- CPU_WriteMem(4 bytes @ 0xE000EDFC) -- CPU_ReadMem(4 bytes @ 0xE0001000) -- CPU_WriteMem(4 bytes @ 0xE0001000)
 -- CPU_ReadMem(4 bytes @ 0xE000ED88) -- CPU_WriteMem(4 bytes @ 0xE000ED88) -- CPU_ReadMem(4 bytes @ 0xE000ED88) -- CPU_WriteMem(4 bytes @ 0xE000ED88)CoreSight components:ROMTbl 0 @ E00FF000 -- CPU_ReadMem(16 bytes @ 0xE00FF000) -- CPU_ReadMem(16 bytes @ 0xE000EFF0) -- CPU_ReadMem(16 bytes @ 0xE000EFE0)ROMTbl 0 [0]: FFF0F000, CID: B105E00D, PID: 000BB00C SCS -- CPU_ReadMem(16 bytes @ 0xE0001FF0) -- CPU_ReadMem(16 bytes @ 0xE0001FE0)ROMTbl 0 [1]: FFF02000, CID: B105E00D, PID: 003BB002 DWT
 -- CPU_ReadMem(16 bytes @ 0xE0002FF0) -- CPU_ReadMem(16 bytes @ 0xE0002FE0)ROMTbl 0 [2]: FFF03000, CID: B105E00D, PID: 002BB003 FPB -- CPU_ReadMem(16 bytes @ 0xE0000FF0) -- CPU_ReadMem(16 bytes @ 0xE0000FE0)ROMTbl 0 [3]: FFF01000, CID: B105E00D, PID: 003BB001 ITM -- CPU_ReadMem(16 bytes @ 0xE00FF010) -- CPU_ReadMem(16 bytes @ 0xE0040FF0) -- CPU_ReadMem(16 bytes @ 0xE0040FE0)ROMTbl 0 [4]: FFF41000, CID: B105900D, PID: 000BB9A1 TPIU -- CPU_ReadMem(16 bytes @ 0xE0041FF0)
 -- CPU_ReadMem(16 bytes @ 0xE0041FE0)ROMTbl 0 [5]: FFF42000, CID: B105900D, PID: 000BB925 ETM >0x0D TIF> >0x21 TIF>  returns 0x2BA01477 (0065ms, 2877ms total)
T34EC 034:703 JLINK_GetDLLVersion()  returns 50001 (0000ms, 2877ms total)
T34EC 034:703 JLINK_CORE_GetFound()  returns 0xE0000FF (0000ms, 2877ms total)
T34EC 034:703 JLINK_GetDebugInfo(0x100) -- Value=0xE00FF003  returns 0x00 (0000ms, 2877ms total)
T34EC 034:706 JLINK_GetDebugInfo(0x100) -- Value=0xE00FF003  returns 0x00 (0001ms, 2878ms total)
T34EC 034:707 JLINK_GetDebugInfo(0x101)  returns 0xFFFFFFFF (0000ms, 2878ms total)
T34EC 034:707 JLINK_ReadMemEx(0xE0041FF0, 0x0010 Bytes, ..., AccessWidth = 33554436) -- CPU is running -- CPU_ReadMem(16 bytes @ 0xE0041FF0) - Data: 0D 00 00 00 90 00 00 00 05 00 00 00 B1 00 00 00  returns 0x10 (0001ms, 2879ms total)
T34EC 034:708 JLINK_GetDebugInfo(0x102)  returns 0xFFFFFFFF (0000ms, 2879ms total)
T34EC 034:708 JLINK_GetDebugInfo(0x103)  returns 0xFFFFFFFF (0000ms, 2879ms total)
T34EC 034:708 JLINK_ReadMemEx(0xE0040FF0, 0x0010 Bytes, ..., AccessWidth = 33554436) -- CPU is running -- CPU_ReadMem(16 bytes @ 0xE0040FF0) - Data: 0D 00 00 00 90 00 00 00 05 00 00 00 B1 00 00 00  returns 0x10 (0000ms, 2879ms total)
T34EC 034:708 JLINK_GetDebugInfo(0x104)  returns 0xFFFFFFFF (0000ms, 2879ms total)
T34EC 034:708 JLINK_GetDebugInfo(0x105)  returns 0xFFFFFFFF (0000ms, 2879ms total)
T34EC 034:708 JLINK_GetDebugInfo(0x106)  returns 0xFFFFFFFF (0000ms, 2879ms total)
T34EC 034:708 JLINK_GetDebugInfo(0x107)  returns 0xFFFFFFFF (0000ms, 2879ms total)
T34EC 034:708 JLINK_GetDebugInfo(0x10C)  returns 0xFFFFFFFF (0000ms, 2879ms total)
T34EC 034:708 JLINK_GetDebugInfo(0x01)  returns 0xFFFFFFFF (0000ms, 2879ms total)
T34EC 034:708 JLINK_GetDeviceFamily()  returns 14 (0000ms, 2879ms total)
T34EC 034:708 JLINK_ReadMemU32(0xE000ED00, 0x0001 Items, ...) -- CPU is running -- CPU_ReadMem(4 bytes @ 0xE000ED00) - Data: 41 C2 0F 41  returns 0x01 (0001ms, 2880ms total)
T34EC 034:709 JLINK_GetDebugInfo(0x10F)  returns 0xFFFFFFFF (0000ms, 2880ms total)
T34EC 034:709 JLINK_SetResetType(JLINKARM_RESET_TYPE_NORMAL)  returns JLINKARM_RESET_TYPE_NORMAL (0000ms, 2880ms total)
T34EC 034:709 JLINK_Reset() -- CPU is running -- CPU_WriteMem(4 bytes @ 0xE000EDF0) -- CPU is running -- CPU_WriteMem(4 bytes @ 0xE000EDFC) >0x35 TIF> -- CPU is running -- CPU_WriteMem(4 bytes @ 0xE000ED0C) -- CPU is running -- CPU_ReadMem(4 bytes @ 0xE000EDF0) -- CPU is running -- CPU_ReadMem(4 bytes @ 0xE000EDF0) -- CPU is running -- CPU_WriteMem(4 bytes @ 0xE000EDF0) -- CPU is running -- CPU_WriteMem(4 bytes @ 0xE000EDFC) -- CPU is running -- CPU_ReadMem(4 bytes @ 0xE000EDF0)
T-bit of XPSR is 0 but should be 1. Changed to 1. -- CPU_WriteMem(4 bytes @ 0xE0002000) -- CPU_ReadMem(4 bytes @ 0xE000EDFC) -- CPU_ReadMem(4 bytes @ 0xE0001000) (0024ms, 2904ms total)
T34EC 034:733 JLINK_Halt()  returns 0x00 (0000ms, 2904ms total)
T34EC 034:733 JLINK_ReadMemU32(0xE000EDF0, 0x0001 Items, ...) -- CPU_ReadMem(4 bytes @ 0xE000EDF0) - Data: 03 00 03 00  returns 0x01 (0001ms, 2905ms total)
T34EC 034:734 JLINK_WriteU32(0xE000EDF0, 0xA05F0003) -- CPU_WriteMem(4 bytes @ 0xE000EDF0)  returns 0x00 (0000ms, 2905ms total)
T34EC 034:734 JLINK_WriteU32(0xE000EDFC, 0x01000000) -- CPU_WriteMem(4 bytes @ 0xE000EDFC)  returns 0x00 (0001ms, 2906ms total)
T34EC 034:748 JLINK_GetHWStatus(...)  returns 0x00 (0001ms, 2907ms total)
T34EC 034:757 JLINK_GetNumBPUnits(Type = 0xFFFFFF00)  returns 0x06 (0000ms, 2907ms total)
T34EC 034:757 JLINK_GetNumBPUnits(Type = 0xF0)  returns 0x2000 (0000ms, 2907ms total)
T34EC 034:757 JLINK_GetNumWPUnits()  returns 0x04 (0000ms, 2907ms total)
T34EC 034:766 JLINK_GetSpeed()  returns 0xFA0 (0000ms, 2907ms total)
T34EC 034:772 JLINK_ReadMemU32(0xE000E004, 0x0001 Items, ...) -- CPU_ReadMem(4 bytes @ 0xE000E004) - Data: 02 00 00 00  returns 0x01 (0000ms, 2907ms total)
T34EC 034:772 JLINK_ReadMemU32(0xE000E004, 0x0001 Items, ...) -- CPU_ReadMem(4 bytes @ 0xE000E004) - Data: 02 00 00 00  returns 0x01 (0001ms, 2908ms total)
T34EC 034:773 JLINK_WriteMemEx(0xE0001000, 0x001C Bytes, ..., AccessWidth = 33554436) - Data: 01 00 00 00 00 00 00 00 00 00 00 00 00 00 00 00 ... -- CPU_WriteMem(28 bytes @ 0xE0001000)  returns 0x1C (0001ms, 2909ms total)
T34EC 034:774 JLINK_Halt()  returns 0x00 (0000ms, 2909ms total)
T34EC 034:774 JLINK_IsHalted()  returns TRUE (0000ms, 2909ms total)
T34EC 034:776 JLINK_WriteMem(0x20000000, 0x0180 Bytes, ...) - Data: 00 BE 0A E0 0D 78 2D 06 68 40 08 24 40 00 00 D3 ... -- CPU_WriteMem(384 bytes @ 0x20000000)  returns 0x180 (0006ms, 2915ms total)
T34EC 034:782 JLINK_WriteReg(R0, 0x08000000)  returns 0x00 (0000ms, 2915ms total)
T34EC 034:782 JLINK_WriteReg(R1, 0x00B71B00)  returns 0x00 (0000ms, 2915ms total)
T34EC 034:782 JLINK_WriteReg(R2, 0x00000001)  returns 0x00 (0000ms, 2915ms total)
T34EC 034:782 JLINK_WriteReg(R3, 0x00000000)  returns 0x00 (0000ms, 2915ms total)
T34EC 034:782 JLINK_WriteReg(R4, 0x00000000)  returns 0x00 (0000ms, 2915ms total)
T34EC 034:782 JLINK_WriteReg(R5, 0x00000000)  returns 0x00 (0000ms, 2915ms total)
T34EC 034:782 JLINK_WriteReg(R6, 0x00000000)  returns 0x00 (0000ms, 2915ms total)
T34EC 034:782 JLINK_WriteReg(R7, 0x00000000)  returns 0x00 (0000ms, 2915ms total)
T34EC 034:782 JLINK_WriteReg(R8, 0x00000000)  returns 0x00 (0000ms, 2915ms total)
T34EC 034:782 JLINK_WriteReg(R9, 0x2000017C)  returns 0x00 (0000ms, 2915ms total)
T34EC 034:782 JLINK_WriteReg(R10, 0x00000000)  returns 0x00 (0000ms, 2915ms total)
T34EC 034:782 JLINK_WriteReg(R11, 0x00000000)  returns 0x00 (0000ms, 2915ms total)
T34EC 034:782 JLINK_WriteReg(R12, 0x00000000)  returns 0x00 (0000ms, 2915ms total)
T34EC 034:782 JLINK_WriteReg(R13 (SP), 0x20001000)  returns 0x00 (0000ms, 2915ms total)
T34EC 034:782 JLINK_WriteReg(R14, 0x20000001)  returns 0x00 (0000ms, 2915ms total)
T34EC 034:782 JLINK_WriteReg(R15 (PC), 0x20000054)  returns 0x00 (0000ms, 2915ms total)
T34EC 034:783 JLINK_WriteReg(XPSR, 0x01000000)  returns 0x00 (0000ms, 2916ms total)
T34EC 034:783 JLINK_WriteReg(MSP, 0x20001000)  returns 0x00 (0000ms, 2916ms total)
T34EC 034:783 JLINK_WriteReg(PSP, 0x20001000)  returns 0x00 (0000ms, 2916ms total)
T34EC 034:783 JLINK_WriteReg(CFBP, 0x00000000)  returns 0x00 (0000ms, 2916ms total)
T34EC 034:783 JLINK_SetBPEx(Addr = 0x20000000, Type = 0xFFFFFFF2) -- CPU_ReadMem(4 bytes @ 0x20000000) -- CPU_WriteMem(4 bytes @ 0x20000000) -- CPU_ReadMem(4 bytes @ 0x20000000) -- CPU_WriteMem(4 bytes @ 0x20000000) -- CPU_ReadMem(2 bytes @ 0x20000000)  returns 0x00000001 (0002ms, 2918ms total)
T34EC 034:785 JLINK_Go() -- CPU_WriteMem(2 bytes @ 0x20000000) -- CPU_ReadMem(4 bytes @ 0xE0001000) -- CPU_WriteMem(4 bytes @ 0xE0002008) -- CPU_WriteMem(4 bytes @ 0xE000200C) -- CPU_WriteMem(4 bytes @ 0xE0002010) -- CPU_WriteMem(4 bytes @ 0xE0002014) -- CPU_WriteMem(4 bytes @ 0xE0002018) -- CPU_WriteMem(4 bytes @ 0xE000201C) -- CPU_WriteMem(4 bytes @ 0xE0001004) (0005ms, 2923ms total)
T34EC 034:790 JLINK_IsHalted() -- CPU_ReadMem(2 bytes @ 0x20000000)  returns TRUE (0004ms, 2927ms total)
T34EC 034:794 JLINK_ReadReg(R15 (PC))  returns 0x20000000 (0000ms, 2923ms total)
T34EC 034:794 JLINK_ClrBPEx(BPHandle = 0x00000001)  returns 0x00 (0000ms, 2923ms total)
T34EC 034:794 JLINK_ReadReg(R0)  returns 0x00000000 (0000ms, 2923ms total)
T34EC 034:794 JLINK_WriteReg(R0, 0x08000000)  returns 0x00 (0000ms, 2923ms total)
T34EC 034:794 JLINK_WriteReg(R1, 0x00004000)  returns 0x00 (0000ms, 2923ms total)
T34EC 034:794 JLINK_WriteReg(R2, 0x000000FF)  returns 0x00 (0000ms, 2923ms total)
T34EC 034:794 JLINK_WriteReg(R3, 0x00000000)  returns 0x00 (0000ms, 2923ms total)
T34EC 034:794 JLINK_WriteReg(R4, 0x00000000)  returns 0x00 (0000ms, 2923ms total)
T34EC 034:794 JLINK_WriteReg(R5, 0x00000000)  returns 0x00 (0001ms, 2924ms total)
T34EC 034:795 JLINK_WriteReg(R6, 0x00000000)  returns 0x00 (0000ms, 2924ms total)
T34EC 034:795 JLINK_WriteReg(R7, 0x00000000)  returns 0x00 (0000ms, 2924ms total)
T34EC 034:795 JLINK_WriteReg(R8, 0x00000000)  returns 0x00 (0000ms, 2924ms total)
T34EC 034:795 JLINK_WriteReg(R9, 0x2000017C)  returns 0x00 (0000ms, 2924ms total)
T34EC 034:795 JLINK_WriteReg(R10, 0x00000000)  returns 0x00 (0000ms, 2924ms total)
T34EC 034:795 JLINK_WriteReg(R11, 0x00000000)  returns 0x00 (0000ms, 2924ms total)
T34EC 034:795 JLINK_WriteReg(R12, 0x00000000)  returns 0x00 (0000ms, 2924ms total)
T34EC 034:795 JLINK_WriteReg(R13 (SP), 0x20001000)  returns 0x00 (0000ms, 2924ms total)
T34EC 034:795 JLINK_WriteReg(R14, 0x20000001)  returns 0x00 (0000ms, 2924ms total)
T34EC 034:795 JLINK_WriteReg(R15 (PC), 0x20000020)  returns 0x00 (0000ms, 2924ms total)
T34EC 034:795 JLINK_WriteReg(XPSR, 0x01000000)  returns 0x00 (0000ms, 2924ms total)
T34EC 034:795 JLINK_WriteReg(MSP, 0x20001000)  returns 0x00 (0000ms, 2924ms total)
T34EC 034:795 JLINK_WriteReg(PSP, 0x20001000)  returns 0x00 (0000ms, 2924ms total)
T34EC 034:795 JLINK_WriteReg(CFBP, 0x00000000)  returns 0x00 (0000ms, 2924ms total)
T34EC 034:795 JLINK_SetBPEx(Addr = 0x20000000, Type = 0xFFFFFFF2)  returns 0x00000002 (0000ms, 2924ms total)
T34EC 034:795 JLINK_Go() -- CPU_ReadMem(4 bytes @ 0xE0001000) (0002ms, 2926ms total)
T34EC 034:797 JLINK_IsHalted() -- CPU_ReadMem(2 bytes @ 0x20000000)  returns TRUE (0004ms, 2930ms total)
T34EC 034:801 JLINK_ReadReg(R15 (PC))  returns 0x20000000 (0000ms, 2926ms total)
T34EC 034:801 JLINK_ClrBPEx(BPHandle = 0x00000002)  returns 0x00 (0000ms, 2926ms total)
T34EC 034:801 JLINK_ReadReg(R0)  returns 0x00000001 (0000ms, 2926ms total)
T34EC 034:801 JLINK_WriteReg(R0, 0x08000000)  returns 0x00 (0000ms, 2926ms total)
T34EC 034:801 JLINK_WriteReg(R1, 0x00004000)  returns 0x00 (0000ms, 2926ms total)
T34EC 034:801 JLINK_WriteReg(R2, 0x000000FF)  returns 0x00 (0000ms, 2926ms total)
T34EC 034:801 JLINK_WriteReg(R3, 0x00000000)  returns 0x00 (0000ms, 2926ms total)
T34EC 034:801 JLINK_WriteReg(R4, 0x00000000)  returns 0x00 (0000ms, 2926ms total)
T34EC 034:801 JLINK_WriteReg(R5, 0x00000000)  returns 0x00 (0000ms, 2926ms total)
T34EC 034:801 JLINK_WriteReg(R6, 0x00000000)  returns 0x00 (0000ms, 2926ms total)
T34EC 034:801 JLINK_WriteReg(R7, 0x00000000)  returns 0x00 (0000ms, 2926ms total)
T34EC 034:801 JLINK_WriteReg(R8, 0x00000000)  returns 0x00 (0001ms, 2927ms total)
T34EC 034:802 JLINK_WriteReg(R9, 0x2000017C)  returns 0x00 (0000ms, 2927ms total)
T34EC 034:802 JLINK_WriteReg(R10, 0x00000000)  returns 0x00 (0000ms, 2927ms total)
T34EC 034:802 JLINK_WriteReg(R11, 0x00000000)  returns 0x00 (0000ms, 2927ms total)
T34EC 034:802 JLINK_WriteReg(R12, 0x00000000)  returns 0x00 (0000ms, 2927ms total)
T34EC 034:802 JLINK_WriteReg(R13 (SP), 0x20001000)  returns 0x00 (0000ms, 2927ms total)
T34EC 034:802 JLINK_WriteReg(R14, 0x20000001)  returns 0x00 (0000ms, 2927ms total)
T34EC 034:802 JLINK_WriteReg(R15 (PC), 0x200000BC)  returns 0x00 (0000ms, 2927ms total)
T34EC 034:802 JLINK_WriteReg(XPSR, 0x01000000)  returns 0x00 (0000ms, 2927ms total)
T34EC 034:802 JLINK_WriteReg(MSP, 0x20001000)  returns 0x00 (0000ms, 2927ms total)
T34EC 034:802 JLINK_WriteReg(PSP, 0x20001000)  returns 0x00 (0000ms, 2927ms total)
T34EC 034:802 JLINK_WriteReg(CFBP, 0x00000000)  returns 0x00 (0000ms, 2927ms total)
T34EC 034:802 JLINK_SetBPEx(Addr = 0x20000000, Type = 0xFFFFFFF2)  returns 0x00000003 (0000ms, 2927ms total)
T34EC 034:802 JLINK_Go() -- CPU_ReadMem(4 bytes @ 0xE0001000) (0002ms, 2929ms total)
T34EC 034:804 JLINK_IsHalted()  returns FALSE (0001ms, 2930ms total)
T34EC 034:870 JLINK_IsHalted()  returns FALSE (0000ms, 2929ms total)
T34EC 034:872 JLINK_IsHalted()  returns FALSE (0000ms, 2929ms total)
T34EC 034:874 JLINK_IsHalted()  returns FALSE (0000ms, 2929ms total)
T34EC 034:876 JLINK_IsHalted()  returns FALSE (0000ms, 2929ms total)
T34EC 034:878 JLINK_IsHalted()  returns FALSE (0000ms, 2929ms total)
T34EC 034:880 JLINK_IsHalted()  returns FALSE (0000ms, 2929ms total)
T34EC 034:882 JLINK_IsHalted()  returns FALSE (0000ms, 2929ms total)
T34EC 034:884 JLINK_IsHalted()  returns FALSE (0000ms, 2929ms total)
T34EC 034:886 JLINK_IsHalted()  returns FALSE (0000ms, 2929ms total)
T34EC 034:888 JLINK_IsHalted()  returns FALSE (0000ms, 2929ms total)
T34EC 034:890 JLINK_IsHalted()  returns FALSE (0000ms, 2929ms total)
T34EC 034:892 JLINK_IsHalted()  returns FALSE (0000ms, 2929ms total)
T34EC 034:894 JLINK_IsHalted()  returns FALSE (0000ms, 2929ms total)
T34EC 034:896 JLINK_IsHalted()  returns FALSE (0000ms, 2929ms total)
T34EC 034:898 JLINK_IsHalted()  returns FALSE (0000ms, 2929ms total)
T34EC 034:900 JLINK_IsHalted()  returns FALSE (0000ms, 2929ms total)
T34EC 034:902 JLINK_IsHalted()  returns FALSE (0000ms, 2929ms total)
T34EC 034:907 JLINK_IsHalted()  returns FALSE (0000ms, 2929ms total)
T34EC 034:909 JLINK_IsHalted()  returns FALSE (0000ms, 2929ms total)
T34EC 034:911 JLINK_IsHalted()  returns FALSE (0000ms, 2929ms total)
T34EC 034:913 JLINK_IsHalted()  returns FALSE (0000ms, 2929ms total)
T34EC 034:915 JLINK_IsHalted()  returns FALSE (0000ms, 2929ms total)
T34EC 034:917 JLINK_IsHalted()  returns FALSE (0000ms, 2929ms total)
T34EC 034:919 JLINK_IsHalted()  returns FALSE (0000ms, 2929ms total)
T34EC 034:921 JLINK_IsHalted()  returns FALSE (0000ms, 2929ms total)
T34EC 034:923 JLINK_IsHalted()  returns FALSE (0000ms, 2929ms total)
T34EC 034:925 JLINK_IsHalted()  returns FALSE (0000ms, 2929ms total)
T34EC 034:927 JLINK_IsHalted()  returns FALSE (0000ms, 2929ms total)
T34EC 034:929 JLINK_IsHalted()  returns FALSE (0000ms, 2929ms total)
T34EC 034:931 JLINK_IsHalted()  returns FALSE (0000ms, 2929ms total)
T34EC 034:933 JLINK_IsHalted()  returns FALSE (0000ms, 2929ms total)
T34EC 034:935 JLINK_IsHalted()  returns FALSE (0000ms, 2929ms total)
T34EC 034:937 JLINK_IsHalted()  returns FALSE (0000ms, 2929ms total)
T34EC 034:939 JLINK_IsHalted()  returns FALSE (0000ms, 2929ms total)
T34EC 034:941 JLINK_IsHalted()  returns FALSE (0000ms, 2929ms total)
T34EC 034:943 JLINK_IsHalted()  returns FALSE (0000ms, 2929ms total)
T34EC 034:945 JLINK_IsHalted()  returns FALSE (0000ms, 2929ms total)
T34EC 034:947 JLINK_IsHalted()  returns FALSE (0000ms, 2929ms total)
T34EC 034:953 JLINK_IsHalted()  returns FALSE (0000ms, 2929ms total)
T34EC 034:955 JLINK_IsHalted()  returns FALSE (0000ms, 2929ms total)
T34EC 034:957 JLINK_IsHalted()  returns FALSE (0000ms, 2929ms total)
T34EC 034:959 JLINK_IsHalted()  returns FALSE (0000ms, 2929ms total)
T34EC 034:961 JLINK_IsHalted()  returns FALSE (0000ms, 2929ms total)
T34EC 034:963 JLINK_IsHalted()  returns FALSE (0000ms, 2929ms total)
T34EC 034:968 JLINK_IsHalted()  returns FALSE (0000ms, 2929ms total)
T34EC 034:970 JLINK_IsHalted()  returns FALSE (0000ms, 2929ms total)
T34EC 034:972 JLINK_IsHalted()  returns FALSE (0000ms, 2929ms total)
T34EC 034:974 JLINK_IsHalted()  returns FALSE (0000ms, 2929ms total)
T34EC 034:976 JLINK_IsHalted()  returns FALSE (0000ms, 2929ms total)
T34EC 034:978 JLINK_IsHalted()  returns FALSE (0000ms, 2929ms total)
T34EC 034:980 JLINK_IsHalted()  returns FALSE (0000ms, 2929ms total)
T34EC 034:982 JLINK_IsHalted()  returns FALSE (0000ms, 2929ms total)
T34EC 034:984 JLINK_IsHalted()  returns FALSE (0001ms, 2930ms total)
T34EC 034:987 JLINK_IsHalted()  returns FALSE (0000ms, 2929ms total)
T34EC 034:989 JLINK_IsHalted()  returns FALSE (0000ms, 2929ms total)
T34EC 034:991 JLINK_IsHalted()  returns FALSE (0000ms, 2929ms total)
T34EC 034:992 JLINK_IsHalted()  returns FALSE (0001ms, 2930ms total)
T34EC 034:995 JLINK_IsHalted()  returns FALSE (0000ms, 2929ms total)
T34EC 035:001 JLINK_IsHalted()  returns FALSE (0000ms, 2929ms total)
T34EC 035:003 JLINK_IsHalted()  returns FALSE (0000ms, 2929ms total)
T34EC 035:005 JLINK_IsHalted()  returns FALSE (0000ms, 2929ms total)
T34EC 035:007 JLINK_IsHalted()  returns FALSE (0000ms, 2929ms total)
T34EC 035:009 JLINK_IsHalted()  returns FALSE (0000ms, 2929ms total)
T34EC 035:011 JLINK_IsHalted()  returns FALSE (0000ms, 2929ms total)
T34EC 035:018 JLINK_IsHalted()  returns FALSE (0000ms, 2929ms total)
T34EC 035:019 JLINK_IsHalted()  returns FALSE (0001ms, 2930ms total)
T34EC 035:022 JLINK_IsHalted()  returns FALSE (0000ms, 2929ms total)
T34EC 035:024 JLINK_IsHalted()  returns FALSE (0000ms, 2929ms total)
T34EC 035:026 JLINK_IsHalted()  returns FALSE (0000ms, 2929ms total)
T34EC 035:028 JLINK_IsHalted()  returns FALSE (0000ms, 2929ms total)
T34EC 035:029 JLINK_IsHalted()  returns FALSE (0000ms, 2929ms total)
T34EC 035:032 JLINK_IsHalted()  returns FALSE (0000ms, 2929ms total)
T34EC 035:034 JLINK_IsHalted()  returns FALSE (0000ms, 2929ms total)
T34EC 035:036 JLINK_IsHalted()  returns FALSE (0000ms, 2929ms total)
T34EC 035:038 JLINK_IsHalted()  returns FALSE (0000ms, 2929ms total)
T34EC 035:040 JLINK_IsHalted()  returns FALSE (0000ms, 2929ms total)
T34EC 035:042 JLINK_IsHalted()  returns FALSE (0000ms, 2929ms total)
T34EC 035:044 JLINK_IsHalted()  returns FALSE (0000ms, 2929ms total)
T34EC 035:046 JLINK_IsHalted()  returns FALSE (0001ms, 2930ms total)
T34EC 035:048 JLINK_IsHalted()  returns FALSE (0001ms, 2930ms total)
T34EC 035:050 JLINK_IsHalted()  returns FALSE (0001ms, 2930ms total)
T34EC 035:052 JLINK_IsHalted()  returns FALSE (0000ms, 2929ms total)
T34EC 035:054 JLINK_IsHalted()  returns FALSE (0001ms, 2930ms total)
T34EC 035:056 JLINK_IsHalted()  returns FALSE (0001ms, 2930ms total)
T34EC 035:059 JLINK_IsHalted()  returns FALSE (0001ms, 2930ms total)
T34EC 035:061 JLINK_IsHalted()  returns FALSE (0001ms, 2930ms total)
T34EC 035:063 JLINK_IsHalted()  returns FALSE (0000ms, 2929ms total)
T34EC 035:065 JLINK_IsHalted() -- CPU_ReadMem(2 bytes @ 0x20000000)  returns TRUE (0004ms, 2933ms total)
T34EC 035:069 JLINK_ReadReg(R15 (PC))  returns 0x20000000 (0000ms, 2929ms total)
T34EC 035:069 JLINK_ClrBPEx(BPHandle = 0x00000003)  returns 0x00 (0000ms, 2929ms total)
T34EC 035:069 JLINK_ReadReg(R0)  returns 0x00000000 (0000ms, 2929ms total)
T34EC 035:071 JLINK_WriteReg(R0, 0x08004000)  returns 0x00 (0000ms, 2929ms total)
T34EC 035:071 JLINK_WriteReg(R1, 0x00004000)  returns 0x00 (0000ms, 2929ms total)
T34EC 035:071 JLINK_WriteReg(R2, 0x000000FF)  returns 0x00 (0000ms, 2929ms total)
T34EC 035:071 JLINK_WriteReg(R3, 0x00000000)  returns 0x00 (0000ms, 2929ms total)
T34EC 035:071 JLINK_WriteReg(R4, 0x00000000)  returns 0x00 (0001ms, 2930ms total)
T34EC 035:072 JLINK_WriteReg(R5, 0x00000000)  returns 0x00 (0001ms, 2931ms total)
T34EC 035:073 JLINK_WriteReg(R6, 0x00000000)  returns 0x00 (0000ms, 2931ms total)
T34EC 035:073 JLINK_WriteReg(R7, 0x00000000)  returns 0x00 (0000ms, 2931ms total)
T34EC 035:073 JLINK_WriteReg(R8, 0x00000000)  returns 0x00 (0000ms, 2931ms total)
T34EC 035:073 JLINK_WriteReg(R9, 0x2000017C)  returns 0x00 (0000ms, 2931ms total)
T34EC 035:073 JLINK_WriteReg(R10, 0x00000000)  returns 0x00 (0000ms, 2931ms total)
T34EC 035:073 JLINK_WriteReg(R11, 0x00000000)  returns 0x00 (0000ms, 2931ms total)
T34EC 035:073 JLINK_WriteReg(R12, 0x00000000)  returns 0x00 (0000ms, 2931ms total)
T34EC 035:073 JLINK_WriteReg(R13 (SP), 0x20001000)  returns 0x00 (0000ms, 2931ms total)
T34EC 035:073 JLINK_WriteReg(R14, 0x20000001)  returns 0x00 (0000ms, 2931ms total)
T34EC 035:073 JLINK_WriteReg(R15 (PC), 0x20000020)  returns 0x00 (0000ms, 2931ms total)
T34EC 035:073 JLINK_WriteReg(XPSR, 0x01000000)  returns 0x00 (0000ms, 2931ms total)
T34EC 035:073 JLINK_WriteReg(MSP, 0x20001000)  returns 0x00 (0000ms, 2931ms total)
T34EC 035:073 JLINK_WriteReg(PSP, 0x20001000)  returns 0x00 (0000ms, 2931ms total)
T34EC 035:073 JLINK_WriteReg(CFBP, 0x00000000)  returns 0x00 (0000ms, 2931ms total)
T34EC 035:073 JLINK_SetBPEx(Addr = 0x20000000, Type = 0xFFFFFFF2)  returns 0x00000004 (0001ms, 2932ms total)
T34EC 035:074 JLINK_Go() -- CPU_ReadMem(4 bytes @ 0xE0001000) (0003ms, 2935ms total)
T34EC 035:077 JLINK_IsHalted()  returns FALSE (0000ms, 2935ms total)
T34EC 035:090 JLINK_IsHalted()  returns FALSE (0000ms, 2935ms total)
T34EC 035:092 JLINK_IsHalted() -- CPU_ReadMem(2 bytes @ 0x20000000)  returns TRUE (0004ms, 2939ms total)
T34EC 035:096 JLINK_ReadReg(R15 (PC))  returns 0x20000000 (0000ms, 2935ms total)
T34EC 035:096 JLINK_ClrBPEx(BPHandle = 0x00000004)  returns 0x00 (0000ms, 2935ms total)
T34EC 035:096 JLINK_ReadReg(R0)  returns 0x00000000 (0000ms, 2935ms total)
T34EC 035:098 JLINK_WriteReg(R0, 0x08008000)  returns 0x00 (0000ms, 2935ms total)
T34EC 035:098 JLINK_WriteReg(R1, 0x00004000)  returns 0x00 (0000ms, 2935ms total)
T34EC 035:098 JLINK_WriteReg(R2, 0x000000FF)  returns 0x00 (0000ms, 2935ms total)
T34EC 035:098 JLINK_WriteReg(R3, 0x00000000)  returns 0x00 (0000ms, 2935ms total)
T34EC 035:098 JLINK_WriteReg(R4, 0x00000000)  returns 0x00 (0000ms, 2935ms total)
T34EC 035:098 JLINK_WriteReg(R5, 0x00000000)  returns 0x00 (0000ms, 2935ms total)
T34EC 035:098 JLINK_WriteReg(R6, 0x00000000)  returns 0x00 (0000ms, 2935ms total)
T34EC 035:098 JLINK_WriteReg(R7, 0x00000000)  returns 0x00 (0000ms, 2935ms total)
T34EC 035:098 JLINK_WriteReg(R8, 0x00000000)  returns 0x00 (0000ms, 2935ms total)
T34EC 035:098 JLINK_WriteReg(R9, 0x2000017C)  returns 0x00 (0000ms, 2935ms total)
T34EC 035:098 JLINK_WriteReg(R10, 0x00000000)  returns 0x00 (0000ms, 2935ms total)
T34EC 035:098 JLINK_WriteReg(R11, 0x00000000)  returns 0x00 (0000ms, 2935ms total)
T34EC 035:098 JLINK_WriteReg(R12, 0x00000000)  returns 0x00 (0001ms, 2936ms total)
T34EC 035:099 JLINK_WriteReg(R13 (SP), 0x20001000)  returns 0x00 (0000ms, 2936ms total)
T34EC 035:099 JLINK_WriteReg(R14, 0x20000001)  returns 0x00 (0000ms, 2936ms total)
T34EC 035:099 JLINK_WriteReg(R15 (PC), 0x20000020)  returns 0x00 (0000ms, 2936ms total)
T34EC 035:099 JLINK_WriteReg(XPSR, 0x01000000)  returns 0x00 (0000ms, 2936ms total)
T34EC 035:099 JLINK_WriteReg(MSP, 0x20001000)  returns 0x00 (0000ms, 2936ms total)
T34EC 035:099 JLINK_WriteReg(PSP, 0x20001000)  returns 0x00 (0000ms, 2936ms total)
T34EC 035:099 JLINK_WriteReg(CFBP, 0x00000000)  returns 0x00 (0000ms, 2936ms total)
T34EC 035:099 JLINK_SetBPEx(Addr = 0x20000000, Type = 0xFFFFFFF2)  returns 0x00000005 (0001ms, 2937ms total)
T34EC 035:100 JLINK_Go() -- CPU_ReadMem(4 bytes @ 0xE0001000) (0002ms, 2939ms total)
T34EC 035:102 JLINK_IsHalted()  returns FALSE (0001ms, 2940ms total)
T34EC 035:105 JLINK_IsHalted()  returns FALSE (0000ms, 2939ms total)
T34EC 035:108 JLINK_IsHalted()  returns FALSE (0000ms, 2939ms total)
T34EC 035:110 JLINK_IsHalted()  returns FALSE (0000ms, 2939ms total)
T34EC 035:112 JLINK_IsHalted()  returns FALSE (0000ms, 2939ms total)
T34EC 035:114 JLINK_IsHalted()  returns FALSE (0000ms, 2939ms total)
T34EC 035:116 JLINK_IsHalted()  returns FALSE (0001ms, 2940ms total)
T34EC 035:118 JLINK_IsHalted() -- CPU_ReadMem(2 bytes @ 0x20000000)  returns TRUE (0003ms, 2942ms total)
T34EC 035:121 JLINK_ReadReg(R15 (PC))  returns 0x20000000 (0000ms, 2939ms total)
T34EC 035:121 JLINK_ClrBPEx(BPHandle = 0x00000005)  returns 0x00 (0000ms, 2939ms total)
T34EC 035:121 JLINK_ReadReg(R0)  returns 0x00000000 (0000ms, 2939ms total)
T34EC 035:122 JLINK_WriteReg(R0, 0x00000001)  returns 0x00 (0000ms, 2939ms total)
T34EC 035:122 JLINK_WriteReg(R1, 0x00004000)  returns 0x00 (0000ms, 2939ms total)
T34EC 035:122 JLINK_WriteReg(R2, 0x000000FF)  returns 0x00 (0000ms, 2939ms total)
T34EC 035:122 JLINK_WriteReg(R3, 0x00000000)  returns 0x00 (0000ms, 2939ms total)
T34EC 035:122 JLINK_WriteReg(R4, 0x00000000)  returns 0x00 (0001ms, 2940ms total)
T34EC 035:123 JLINK_WriteReg(R5, 0x00000000)  returns 0x00 (0000ms, 2940ms total)
T34EC 035:123 JLINK_WriteReg(R6, 0x00000000)  returns 0x00 (0000ms, 2940ms total)
T34EC 035:123 JLINK_WriteReg(R7, 0x00000000)  returns 0x00 (0000ms, 2940ms total)
T34EC 035:123 JLINK_WriteReg(R8, 0x00000000)  returns 0x00 (0000ms, 2940ms total)
T34EC 035:123 JLINK_WriteReg(R9, 0x2000017C)  returns 0x00 (0000ms, 2940ms total)
T34EC 035:123 JLINK_WriteReg(R10, 0x00000000)  returns 0x00 (0000ms, 2940ms total)
T34EC 035:123 JLINK_WriteReg(R11, 0x00000000)  returns 0x00 (0000ms, 2940ms total)
T34EC 035:123 JLINK_WriteReg(R12, 0x00000000)  returns 0x00 (0000ms, 2940ms total)
T34EC 035:123 JLINK_WriteReg(R13 (SP), 0x20001000)  returns 0x00 (0000ms, 2940ms total)
T34EC 035:123 JLINK_WriteReg(R14, 0x20000001)  returns 0x00 (0000ms, 2940ms total)
T34EC 035:123 JLINK_WriteReg(R15 (PC), 0x20000082)  returns 0x00 (0001ms, 2941ms total)
T34EC 035:124 JLINK_WriteReg(XPSR, 0x01000000)  returns 0x00 (0000ms, 2941ms total)
T34EC 035:124 JLINK_WriteReg(MSP, 0x20001000)  returns 0x00 (0000ms, 2941ms total)
T34EC 035:124 JLINK_WriteReg(PSP, 0x20001000)  returns 0x00 (0000ms, 2941ms total)
T34EC 035:124 JLINK_WriteReg(CFBP, 0x00000000)  returns 0x00 (0000ms, 2941ms total)
T34EC 035:124 JLINK_SetBPEx(Addr = 0x20000000, Type = 0xFFFFFFF2)  returns 0x00000006 (0000ms, 2941ms total)
T34EC 035:124 JLINK_Go() -- CPU_ReadMem(4 bytes @ 0xE0001000) (0002ms, 2943ms total)
T34EC 035:126 JLINK_IsHalted() -- CPU_ReadMem(2 bytes @ 0x20000000)  returns TRUE (0003ms, 2946ms total)
T34EC 035:129 JLINK_ReadReg(R15 (PC))  returns 0x20000000 (0000ms, 2943ms total)
T34EC 035:129 JLINK_ClrBPEx(BPHandle = 0x00000006)  returns 0x00 (0000ms, 2943ms total)
T34EC 035:129 JLINK_ReadReg(R0)  returns 0x00000000 (0001ms, 2944ms total)
T34EC 035:193 JLINK_WriteMem(0x20000000, 0x0180 Bytes, ...) - Data: 00 BE 0A E0 0D 78 2D 06 68 40 08 24 40 00 00 D3 ... -- CPU_WriteMem(384 bytes @ 0x20000000)  returns 0x180 (0005ms, 2949ms total)
T34EC 035:198 JLINK_WriteReg(R0, 0x08000000)  returns 0x00 (0000ms, 2949ms total)
T34EC 035:198 JLINK_WriteReg(R1, 0x00B71B00)  returns 0x00 (0000ms, 2949ms total)
T34EC 035:198 JLINK_WriteReg(R2, 0x00000002)  returns 0x00 (0000ms, 2949ms total)
T34EC 035:198 JLINK_WriteReg(R3, 0x00000000)  returns 0x00 (0000ms, 2949ms total)
T34EC 035:198 JLINK_WriteReg(R4, 0x00000000)  returns 0x00 (0000ms, 2949ms total)
T34EC 035:198 JLINK_WriteReg(R5, 0x00000000)  returns 0x00 (0000ms, 2949ms total)
T34EC 035:198 JLINK_WriteReg(R6, 0x00000000)  returns 0x00 (0000ms, 2949ms total)
T34EC 035:198 JLINK_WriteReg(R7, 0x00000000)  returns 0x00 (0001ms, 2950ms total)
T34EC 035:199 JLINK_WriteReg(R8, 0x00000000)  returns 0x00 (0000ms, 2950ms total)
T34EC 035:199 JLINK_WriteReg(R9, 0x2000017C)  returns 0x00 (0000ms, 2950ms total)
T34EC 035:199 JLINK_WriteReg(R10, 0x00000000)  returns 0x00 (0000ms, 2950ms total)
T34EC 035:199 JLINK_WriteReg(R11, 0x00000000)  returns 0x00 (0000ms, 2950ms total)
T34EC 035:199 JLINK_WriteReg(R12, 0x00000000)  returns 0x00 (0000ms, 2950ms total)
T34EC 035:199 JLINK_WriteReg(R13 (SP), 0x20001000)  returns 0x00 (0000ms, 2950ms total)
T34EC 035:199 JLINK_WriteReg(R14, 0x20000001)  returns 0x00 (0000ms, 2950ms total)
T34EC 035:199 JLINK_WriteReg(R15 (PC), 0x20000054)  returns 0x00 (0000ms, 2950ms total)
T34EC 035:199 JLINK_WriteReg(XPSR, 0x01000000)  returns 0x00 (0000ms, 2950ms total)
T34EC 035:199 JLINK_WriteReg(MSP, 0x20001000)  returns 0x00 (0001ms, 2951ms total)
T34EC 035:200 JLINK_WriteReg(PSP, 0x20001000)  returns 0x00 (0000ms, 2951ms total)
T34EC 035:200 JLINK_WriteReg(CFBP, 0x00000000)  returns 0x00 (0000ms, 2951ms total)
T34EC 035:200 JLINK_SetBPEx(Addr = 0x20000000, Type = 0xFFFFFFF2) -- CPU_ReadMem(4 bytes @ 0x20000000) -- CPU_WriteMem(4 bytes @ 0x20000000) -- CPU_ReadMem(4 bytes @ 0x20000000) -- CPU_WriteMem(4 bytes @ 0x20000000) -- CPU_ReadMem(2 bytes @ 0x20000000)  returns 0x00000007 (0001ms, 2952ms total)
T34EC 035:201 JLINK_Go() -- CPU_WriteMem(2 bytes @ 0x20000000) -- CPU_ReadMem(4 bytes @ 0xE0001000) (0002ms, 2954ms total)
T34EC 035:203 JLINK_IsHalted() -- CPU_ReadMem(2 bytes @ 0x20000000)  returns TRUE (0004ms, 2958ms total)
T34EC 035:207 JLINK_ReadReg(R15 (PC))  returns 0x20000000 (0000ms, 2954ms total)
T34EC 035:207 JLINK_ClrBPEx(BPHandle = 0x00000007)  returns 0x00 (0000ms, 2954ms total)
T34EC 035:207 JLINK_ReadReg(R0)  returns 0x00000000 (0000ms, 2954ms total)
T34EC 035:207 JLINK_WriteMem(0x20000180, 0x0280 Bytes, ...) - Data: C0 58 00 20 55 02 00 08 39 40 00 08 3D 36 00 08 ... -- CPU_WriteMem(640 bytes @ 0x20000180)  returns 0x280 (0009ms, 2963ms total)
T34EC 035:216 JLINK_WriteMem(0x20000400, 0x0180 Bytes, ...) - Data: 43 F2 39 02 10 44 08 60 40 08 70 47 01 49 08 60 ... -- CPU_WriteMem(384 bytes @ 0x20000400)  returns 0x180 (0005ms, 2968ms total)
T34EC 035:221 JLINK_WriteReg(R0, 0x08000000)  returns 0x00 (0000ms, 2968ms total)
T34EC 035:221 JLINK_WriteReg(R1, 0x00000400)  returns 0x00 (0000ms, 2968ms total)
T34EC 035:221 JLINK_WriteReg(R2, 0x20000180)  returns 0x00 (0000ms, 2968ms total)
T34EC 035:221 JLINK_WriteReg(R3, 0x00000000)  returns 0x00 (0000ms, 2968ms total)
T34EC 035:221 JLINK_WriteReg(R4, 0x00000000)  returns 0x00 (0000ms, 2968ms total)
T34EC 035:221 JLINK_WriteReg(R5, 0x00000000)  returns 0x00 (0000ms, 2968ms total)
T34EC 035:221 JLINK_WriteReg(R6, 0x00000000)  returns 0x00 (0001ms, 2969ms total)
T34EC 035:222 JLINK_WriteReg(R7, 0x00000000)  returns 0x00 (0000ms, 2969ms total)
T34EC 035:222 JLINK_WriteReg(R8, 0x00000000)  returns 0x00 (0000ms, 2969ms total)
T34EC 035:222 JLINK_WriteReg(R9, 0x2000017C)  returns 0x00 (0000ms, 2969ms total)
T34EC 035:222 JLINK_WriteReg(R10, 0x00000000)  returns 0x00 (0000ms, 2969ms total)
T34EC 035:222 JLINK_WriteReg(R11, 0x00000000)  returns 0x00 (0000ms, 2969ms total)
T34EC 035:222 JLINK_WriteReg(R12, 0x00000000)  returns 0x00 (0000ms, 2969ms total)
T34EC 035:222 JLINK_WriteReg(R13 (SP), 0x20001000)  returns 0x00 (0000ms, 2969ms total)
T34EC 035:222 JLINK_WriteReg(R14, 0x20000001)  returns 0x00 (0000ms, 2969ms total)
T34EC 035:222 JLINK_WriteReg(R15 (PC), 0x20000108)  returns 0x00 (0000ms, 2969ms total)
T34EC 035:222 JLINK_WriteReg(XPSR, 0x01000000)  returns 0x00 (0000ms, 2969ms total)
T34EC 035:222 JLINK_WriteReg(MSP, 0x20001000)  returns 0x00 (0000ms, 2969ms total)
T34EC 035:222 JLINK_WriteReg(PSP, 0x20001000)  returns 0x00 (0000ms, 2969ms total)
T34EC 035:222 JLINK_WriteReg(CFBP, 0x00000000)  returns 0x00 (0000ms, 2969ms total)
T34EC 035:222 JLINK_SetBPEx(Addr = 0x20000000, Type = 0xFFFFFFF2)  returns 0x00000008 (0000ms, 2969ms total)
T34EC 035:222 JLINK_Go() -- CPU_ReadMem(4 bytes @ 0xE0001000) (0002ms, 2971ms total)
T34EC 035:224 JLINK_IsHalted()  returns FALSE (0001ms, 2972ms total)
T34EC 035:232 JLINK_IsHalted() -- CPU_ReadMem(2 bytes @ 0x20000000)  returns TRUE (0003ms, 2974ms total)
T34EC 035:235 JLINK_ReadReg(R15 (PC))  returns 0x20000000 (0000ms, 2971ms total)
T34EC 035:235 JLINK_ClrBPEx(BPHandle = 0x00000008)  returns 0x00 (0000ms, 2971ms total)
T34EC 035:235 JLINK_ReadReg(R0)  returns 0x00000000 (0000ms, 2971ms total)
T34EC 035:236 JLINK_WriteMem(0x20000180, 0x0280 Bytes, ...) - Data: 00 1B 61 EB 02 01 00 1C 41 F5 80 11 49 08 4F EA ... -- CPU_WriteMem(640 bytes @ 0x20000180)  returns 0x280 (0008ms, 2979ms total)
T34EC 035:244 JLINK_WriteMem(0x20000400, 0x0180 Bytes, ...) - Data: 90 42 30 BD 01 F0 00 43 30 B4 21 F0 00 41 50 EA ... -- CPU_WriteMem(384 bytes @ 0x20000400)  returns 0x180 (0005ms, 2984ms total)
T34EC 035:249 JLINK_WriteReg(R0, 0x08000400)  returns 0x00 (0000ms, 2984ms total)
T34EC 035:249 JLINK_WriteReg(R1, 0x00000400)  returns 0x00 (0000ms, 2984ms total)
T34EC 035:249 JLINK_WriteReg(R2, 0x20000180)  returns 0x00 (0000ms, 2984ms total)
T34EC 035:249 JLINK_WriteReg(R3, 0x00000000)  returns 0x00 (0000ms, 2984ms total)
T34EC 035:249 JLINK_WriteReg(R4, 0x00000000)  returns 0x00 (0000ms, 2984ms total)
T34EC 035:249 JLINK_WriteReg(R5, 0x00000000)  returns 0x00 (0000ms, 2984ms total)
T34EC 035:249 JLINK_WriteReg(R6, 0x00000000)  returns 0x00 (0000ms, 2984ms total)
T34EC 035:249 JLINK_WriteReg(R7, 0x00000000)  returns 0x00 (0000ms, 2984ms total)
T34EC 035:249 JLINK_WriteReg(R8, 0x00000000)  returns 0x00 (0001ms, 2985ms total)
T34EC 035:250 JLINK_WriteReg(R9, 0x2000017C)  returns 0x00 (0000ms, 2985ms total)
T34EC 035:250 JLINK_WriteReg(R10, 0x00000000)  returns 0x00 (0000ms, 2985ms total)
T34EC 035:250 JLINK_WriteReg(R11, 0x00000000)  returns 0x00 (0000ms, 2985ms total)
T34EC 035:250 JLINK_WriteReg(R12, 0x00000000)  returns 0x00 (0000ms, 2985ms total)
T34EC 035:250 JLINK_WriteReg(R13 (SP), 0x20001000)  returns 0x00 (0000ms, 2985ms total)
T34EC 035:250 JLINK_WriteReg(R14, 0x20000001)  returns 0x00 (0000ms, 2985ms total)
T34EC 035:250 JLINK_WriteReg(R15 (PC), 0x20000108)  returns 0x00 (0000ms, 2985ms total)
T34EC 035:250 JLINK_WriteReg(XPSR, 0x01000000)  returns 0x00 (0000ms, 2985ms total)
T34EC 035:250 JLINK_WriteReg(MSP, 0x20001000)  returns 0x00 (0000ms, 2985ms total)
T34EC 035:250 JLINK_WriteReg(PSP, 0x20001000)  returns 0x00 (0000ms, 2985ms total)
T34EC 035:250 JLINK_WriteReg(CFBP, 0x00000000)  returns 0x00 (0000ms, 2985ms total)
T34EC 035:250 JLINK_SetBPEx(Addr = 0x20000000, Type = 0xFFFFFFF2)  returns 0x00000009 (0000ms, 2985ms total)
T34EC 035:250 JLINK_Go() -- CPU_ReadMem(4 bytes @ 0xE0001000) (0002ms, 2987ms total)
T34EC 035:252 JLINK_IsHalted()  returns FALSE (0001ms, 2988ms total)
T34EC 035:255 JLINK_IsHalted()  returns FALSE (0000ms, 2987ms total)
T34EC 035:257 JLINK_IsHalted() -- CPU_ReadMem(2 bytes @ 0x20000000)  returns TRUE (0003ms, 2990ms total)
T34EC 035:260 JLINK_ReadReg(R15 (PC))  returns 0x20000000 (0000ms, 2987ms total)
T34EC 035:260 JLINK_ClrBPEx(BPHandle = 0x00000009)  returns 0x00 (0000ms, 2987ms total)
T34EC 035:260 JLINK_ReadReg(R0)  returns 0x00000000 (0000ms, 2987ms total)
T34EC 035:262 JLINK_WriteMem(0x20000180, 0x0280 Bytes, ...) - Data: 5A 46 08 43 13 D0 11 46 53 EA 01 00 19 D0 C8 F1 ... -- CPU_WriteMem(640 bytes @ 0x20000180)  returns 0x280 (0007ms, 2994ms total)
T34EC 035:269 JLINK_WriteMem(0x20000400, 0x0180 Bytes, ...) - Data: 01 21 0E 48 4C 38 00 F0 1D F8 01 21 0B 48 4C 38 ... -- CPU_WriteMem(384 bytes @ 0x20000400)  returns 0x180 (0005ms, 2999ms total)
T34EC 035:274 JLINK_WriteReg(R0, 0x08000800)  returns 0x00 (0000ms, 2999ms total)
T34EC 035:275 JLINK_WriteReg(R1, 0x00000400)  returns 0x00 (0000ms, 2999ms total)
T34EC 035:275 JLINK_WriteReg(R2, 0x20000180)  returns 0x00 (0000ms, 2999ms total)
T34EC 035:275 JLINK_WriteReg(R3, 0x00000000)  returns 0x00 (0000ms, 2999ms total)
T34EC 035:275 JLINK_WriteReg(R4, 0x00000000)  returns 0x00 (0000ms, 2999ms total)
T34EC 035:275 JLINK_WriteReg(R5, 0x00000000)  returns 0x00 (0000ms, 2999ms total)
T34EC 035:275 JLINK_WriteReg(R6, 0x00000000)  returns 0x00 (0000ms, 2999ms total)
T34EC 035:275 JLINK_WriteReg(R7, 0x00000000)  returns 0x00 (0000ms, 2999ms total)
T34EC 035:275 JLINK_WriteReg(R8, 0x00000000)  returns 0x00 (0000ms, 2999ms total)
T34EC 035:275 JLINK_WriteReg(R9, 0x2000017C)  returns 0x00 (0000ms, 2999ms total)
T34EC 035:275 JLINK_WriteReg(R10, 0x00000000)  returns 0x00 (0000ms, 2999ms total)
T34EC 035:275 JLINK_WriteReg(R11, 0x00000000)  returns 0x00 (0000ms, 2999ms total)
T34EC 035:275 JLINK_WriteReg(R12, 0x00000000)  returns 0x00 (0000ms, 2999ms total)
T34EC 035:275 JLINK_WriteReg(R13 (SP), 0x20001000)  returns 0x00 (0000ms, 2999ms total)
T34EC 035:275 JLINK_WriteReg(R14, 0x20000001)  returns 0x00 (0000ms, 2999ms total)
T34EC 035:275 JLINK_WriteReg(R15 (PC), 0x20000108)  returns 0x00 (0000ms, 2999ms total)
T34EC 035:275 JLINK_WriteReg(XPSR, 0x01000000)  returns 0x00 (0000ms, 2999ms total)
T34EC 035:275 JLINK_WriteReg(MSP, 0x20001000)  returns 0x00 (0000ms, 2999ms total)
T34EC 035:276 JLINK_WriteReg(PSP, 0x20001000)  returns 0x00 (0000ms, 3000ms total)
T34EC 035:276 JLINK_WriteReg(CFBP, 0x00000000)  returns 0x00 (0000ms, 3000ms total)
T34EC 035:276 JLINK_SetBPEx(Addr = 0x20000000, Type = 0xFFFFFFF2)  returns 0x0000000A (0000ms, 3000ms total)
T34EC 035:276 JLINK_Go() -- CPU_ReadMem(4 bytes @ 0xE0001000) (0002ms, 3002ms total)
T34EC 035:278 JLINK_IsHalted()  returns FALSE (0000ms, 3002ms total)
T34EC 035:281 JLINK_IsHalted()  returns FALSE (0000ms, 3002ms total)
T34EC 035:283 JLINK_IsHalted() -- CPU_ReadMem(2 bytes @ 0x20000000)  returns TRUE (0003ms, 3005ms total)
T34EC 035:286 JLINK_ReadReg(R15 (PC))  returns 0x20000000 (0000ms, 3002ms total)
T34EC 035:286 JLINK_ClrBPEx(BPHandle = 0x0000000A)  returns 0x00 (0000ms, 3002ms total)
T34EC 035:286 JLINK_ReadReg(R0)  returns 0x00000000 (0000ms, 3002ms total)
T34EC 035:287 JLINK_WriteMem(0x20000180, 0x0280 Bytes, ...) - Data: 09 0A 71 EE A0 0A B0 EE 60 0A DF ED 13 0A 60 EE ... -- CPU_WriteMem(640 bytes @ 0x20000180)  returns 0x280 (0008ms, 3010ms total)
T34EC 035:295 JLINK_WriteMem(0x20000400, 0x0180 Bytes, ...) - Data: 40 21 08 48 02 F0 3D FB 01 20 07 49 08 70 4F F4 ... -- CPU_WriteMem(384 bytes @ 0x20000400)  returns 0x180 (0005ms, 3015ms total)
T34EC 035:300 JLINK_WriteReg(R0, 0x08000C00)  returns 0x00 (0000ms, 3015ms total)
T34EC 035:300 JLINK_WriteReg(R1, 0x00000400)  returns 0x00 (0000ms, 3015ms total)
T34EC 035:300 JLINK_WriteReg(R2, 0x20000180)  returns 0x00 (0000ms, 3015ms total)
T34EC 035:300 JLINK_WriteReg(R3, 0x00000000)  returns 0x00 (0000ms, 3015ms total)
T34EC 035:300 JLINK_WriteReg(R4, 0x00000000)  returns 0x00 (0000ms, 3015ms total)
T34EC 035:300 JLINK_WriteReg(R5, 0x00000000)  returns 0x00 (0000ms, 3015ms total)
T34EC 035:300 JLINK_WriteReg(R6, 0x00000000)  returns 0x00 (0001ms, 3016ms total)
T34EC 035:301 JLINK_WriteReg(R7, 0x00000000)  returns 0x00 (0000ms, 3016ms total)
T34EC 035:301 JLINK_WriteReg(R8, 0x00000000)  returns 0x00 (0000ms, 3016ms total)
T34EC 035:301 JLINK_WriteReg(R9, 0x2000017C)  returns 0x00 (0000ms, 3016ms total)
T34EC 035:301 JLINK_WriteReg(R10, 0x00000000)  returns 0x00 (0000ms, 3016ms total)
T34EC 035:301 JLINK_WriteReg(R11, 0x00000000)  returns 0x00 (0000ms, 3016ms total)
T34EC 035:301 JLINK_WriteReg(R12, 0x00000000)  returns 0x00 (0000ms, 3016ms total)
T34EC 035:301 JLINK_WriteReg(R13 (SP), 0x20001000)  returns 0x00 (0000ms, 3016ms total)
T34EC 035:301 JLINK_WriteReg(R14, 0x20000001)  returns 0x00 (0000ms, 3016ms total)
T34EC 035:301 JLINK_WriteReg(R15 (PC), 0x20000108)  returns 0x00 (0000ms, 3016ms total)
T34EC 035:301 JLINK_WriteReg(XPSR, 0x01000000)  returns 0x00 (0000ms, 3016ms total)
T34EC 035:301 JLINK_WriteReg(MSP, 0x20001000)  returns 0x00 (0000ms, 3016ms total)
T34EC 035:301 JLINK_WriteReg(PSP, 0x20001000)  returns 0x00 (0000ms, 3016ms total)
T34EC 035:301 JLINK_WriteReg(CFBP, 0x00000000)  returns 0x00 (0000ms, 3016ms total)
T34EC 035:301 JLINK_SetBPEx(Addr = 0x20000000, Type = 0xFFFFFFF2)  returns 0x0000000B (0000ms, 3016ms total)
T34EC 035:301 JLINK_Go() -- CPU_ReadMem(4 bytes @ 0xE0001000) (0002ms, 3018ms total)
T34EC 035:303 JLINK_IsHalted()  returns FALSE (0001ms, 3019ms total)
T34EC 035:306 JLINK_IsHalted()  returns FALSE (0000ms, 3018ms total)
T34EC 035:308 JLINK_IsHalted() -- CPU_ReadMem(2 bytes @ 0x20000000)  returns TRUE (0003ms, 3021ms total)
T34EC 035:311 JLINK_ReadReg(R15 (PC))  returns 0x20000000 (0000ms, 3018ms total)
T34EC 035:311 JLINK_ClrBPEx(BPHandle = 0x0000000B)  returns 0x00 (0000ms, 3018ms total)
T34EC 035:311 JLINK_ReadReg(R0)  returns 0x00000000 (0000ms, 3018ms total)
T34EC 035:312 JLINK_WriteMem(0x20000180, 0x0280 Bytes, ...) - Data: 06 A9 19 48 00 F0 7D FA 00 20 8D F8 12 00 01 20 ... -- CPU_WriteMem(640 bytes @ 0x20000180)  returns 0x280 (0008ms, 3026ms total)
T34EC 035:320 JLINK_WriteMem(0x20000400, 0x0180 Bytes, ...) - Data: 42 60 00 E0 00 BF 00 BF 70 47 00 00 01 01 01 00 ... -- CPU_WriteMem(384 bytes @ 0x20000400)  returns 0x180 (0005ms, 3031ms total)
T34EC 035:325 JLINK_WriteReg(R0, 0x08001000)  returns 0x00 (0000ms, 3031ms total)
T34EC 035:325 JLINK_WriteReg(R1, 0x00000400)  returns 0x00 (0000ms, 3031ms total)
T34EC 035:325 JLINK_WriteReg(R2, 0x20000180)  returns 0x00 (0000ms, 3031ms total)
T34EC 035:325 JLINK_WriteReg(R3, 0x00000000)  returns 0x00 (0000ms, 3031ms total)
T34EC 035:325 JLINK_WriteReg(R4, 0x00000000)  returns 0x00 (0000ms, 3031ms total)
T34EC 035:325 JLINK_WriteReg(R5, 0x00000000)  returns 0x00 (0000ms, 3031ms total)
T34EC 035:325 JLINK_WriteReg(R6, 0x00000000)  returns 0x00 (0000ms, 3031ms total)
T34EC 035:325 JLINK_WriteReg(R7, 0x00000000)  returns 0x00 (0000ms, 3031ms total)
T34EC 035:325 JLINK_WriteReg(R8, 0x00000000)  returns 0x00 (0000ms, 3031ms total)
T34EC 035:325 JLINK_WriteReg(R9, 0x2000017C)  returns 0x00 (0000ms, 3031ms total)
T34EC 035:325 JLINK_WriteReg(R10, 0x00000000)  returns 0x00 (0000ms, 3031ms total)
T34EC 035:325 JLINK_WriteReg(R11, 0x00000000)  returns 0x00 (0000ms, 3031ms total)
T34EC 035:325 JLINK_WriteReg(R12, 0x00000000)  returns 0x00 (0000ms, 3031ms total)
T34EC 035:325 JLINK_WriteReg(R13 (SP), 0x20001000)  returns 0x00 (0000ms, 3031ms total)
T34EC 035:325 JLINK_WriteReg(R14, 0x20000001)  returns 0x00 (0000ms, 3031ms total)
T34EC 035:325 JLINK_WriteReg(R15 (PC), 0x20000108)  returns 0x00 (0001ms, 3032ms total)
T34EC 035:326 JLINK_WriteReg(XPSR, 0x01000000)  returns 0x00 (0000ms, 3032ms total)
T34EC 035:326 JLINK_WriteReg(MSP, 0x20001000)  returns 0x00 (0000ms, 3032ms total)
T34EC 035:326 JLINK_WriteReg(PSP, 0x20001000)  returns 0x00 (0000ms, 3032ms total)
T34EC 035:326 JLINK_WriteReg(CFBP, 0x00000000)  returns 0x00 (0000ms, 3032ms total)
T34EC 035:326 JLINK_SetBPEx(Addr = 0x20000000, Type = 0xFFFFFFF2)  returns 0x0000000C (0000ms, 3032ms total)
T34EC 035:326 JLINK_Go() -- CPU_ReadMem(4 bytes @ 0xE0001000) (0002ms, 3034ms total)
T34EC 035:328 JLINK_IsHalted()  returns FALSE (0000ms, 3034ms total)
T34EC 035:330 JLINK_IsHalted()  returns FALSE (0000ms, 3034ms total)
T34EC 035:332 JLINK_IsHalted()  returns FALSE (0000ms, 3034ms total)
T34EC 035:334 JLINK_IsHalted() -- CPU_ReadMem(2 bytes @ 0x20000000)  returns TRUE (0003ms, 3037ms total)
T34EC 035:337 JLINK_ReadReg(R15 (PC))  returns 0x20000000 (0000ms, 3034ms total)
T34EC 035:337 JLINK_ClrBPEx(BPHandle = 0x0000000C)  returns 0x00 (0000ms, 3034ms total)
T34EC 035:337 JLINK_ReadReg(R0)  returns 0x00000000 (0000ms, 3034ms total)
T34EC 035:338 JLINK_WriteMem(0x20000180, 0x0280 Bytes, ...) - Data: 20 2D 35 D0 40 2D 6B D1 38 E0 B5 F5 00 4F 60 D0 ... -- CPU_WriteMem(640 bytes @ 0x20000180)  returns 0x280 (0008ms, 3042ms total)
T34EC 035:346 JLINK_WriteMem(0x20000400, 0x0180 Bytes, ...) - Data: 1B 0A D3 74 00 F5 D8 73 03 EB 01 13 9B 68 D3 72 ... -- CPU_WriteMem(384 bytes @ 0x20000400)  returns 0x180 (0005ms, 3047ms total)
T34EC 035:351 JLINK_WriteReg(R0, 0x08001400)  returns 0x00 (0000ms, 3047ms total)
T34EC 035:351 JLINK_WriteReg(R1, 0x00000400)  returns 0x00 (0000ms, 3047ms total)
T34EC 035:351 JLINK_WriteReg(R2, 0x20000180)  returns 0x00 (0000ms, 3047ms total)
T34EC 035:351 JLINK_WriteReg(R3, 0x00000000)  returns 0x00 (0000ms, 3047ms total)
T34EC 035:351 JLINK_WriteReg(R4, 0x00000000)  returns 0x00 (0000ms, 3047ms total)
T34EC 035:351 JLINK_WriteReg(R5, 0x00000000)  returns 0x00 (0000ms, 3047ms total)
T34EC 035:351 JLINK_WriteReg(R6, 0x00000000)  returns 0x00 (0000ms, 3047ms total)
T34EC 035:351 JLINK_WriteReg(R7, 0x00000000)  returns 0x00 (0000ms, 3047ms total)
T34EC 035:351 JLINK_WriteReg(R8, 0x00000000)  returns 0x00 (0001ms, 3048ms total)
T34EC 035:352 JLINK_WriteReg(R9, 0x2000017C)  returns 0x00 (0000ms, 3048ms total)
T34EC 035:352 JLINK_WriteReg(R10, 0x00000000)  returns 0x00 (0000ms, 3048ms total)
T34EC 035:352 JLINK_WriteReg(R11, 0x00000000)  returns 0x00 (0000ms, 3048ms total)
T34EC 035:352 JLINK_WriteReg(R12, 0x00000000)  returns 0x00 (0000ms, 3048ms total)
T34EC 035:352 JLINK_WriteReg(R13 (SP), 0x20001000)  returns 0x00 (0000ms, 3048ms total)
T34EC 035:352 JLINK_WriteReg(R14, 0x20000001)  returns 0x00 (0000ms, 3048ms total)
T34EC 035:352 JLINK_WriteReg(R15 (PC), 0x20000108)  returns 0x00 (0000ms, 3048ms total)
T34EC 035:352 JLINK_WriteReg(XPSR, 0x01000000)  returns 0x00 (0000ms, 3048ms total)
T34EC 035:352 JLINK_WriteReg(MSP, 0x20001000)  returns 0x00 (0000ms, 3048ms total)
T34EC 035:352 JLINK_WriteReg(PSP, 0x20001000)  returns 0x00 (0000ms, 3048ms total)
T34EC 035:352 JLINK_WriteReg(CFBP, 0x00000000)  returns 0x00 (0000ms, 3048ms total)
T34EC 035:352 JLINK_SetBPEx(Addr = 0x20000000, Type = 0xFFFFFFF2)  returns 0x0000000D (0000ms, 3048ms total)
T34EC 035:352 JLINK_Go() -- CPU_ReadMem(4 bytes @ 0xE0001000) (0002ms, 3050ms total)
T34EC 035:354 JLINK_IsHalted()  returns FALSE (0001ms, 3051ms total)
T34EC 035:363 JLINK_IsHalted() -- CPU_ReadMem(2 bytes @ 0x20000000)  returns TRUE (0003ms, 3053ms total)
T34EC 035:366 JLINK_ReadReg(R15 (PC))  returns 0x20000000 (0000ms, 3050ms total)
T34EC 035:366 JLINK_ClrBPEx(BPHandle = 0x0000000D)  returns 0x00 (0000ms, 3050ms total)
T34EC 035:366 JLINK_ReadReg(R0)  returns 0x00000000 (0000ms, 3050ms total)
T34EC 035:367 JLINK_WriteMem(0x20000180, 0x0280 Bytes, ...) - Data: 0B 7B 44 EA 03 23 CC 7A 23 43 02 F5 C0 74 04 EB ... -- CPU_WriteMem(640 bytes @ 0x20000180)  returns 0x280 (0008ms, 3058ms total)
T34EC 035:375 JLINK_WriteMem(0x20000400, 0x0180 Bytes, ...) - Data: 04 46 00 20 8D F8 0C 00 8D F8 0D 00 08 20 8D F8 ... -- CPU_WriteMem(384 bytes @ 0x20000400)  returns 0x180 (0005ms, 3063ms total)
T34EC 035:380 JLINK_WriteReg(R0, 0x08001800)  returns 0x00 (0001ms, 3064ms total)
T34EC 035:381 JLINK_WriteReg(R1, 0x00000400)  returns 0x00 (0000ms, 3064ms total)
T34EC 035:381 JLINK_WriteReg(R2, 0x20000180)  returns 0x00 (0000ms, 3064ms total)
T34EC 035:381 JLINK_WriteReg(R3, 0x00000000)  returns 0x00 (0000ms, 3064ms total)
T34EC 035:381 JLINK_WriteReg(R4, 0x00000000)  returns 0x00 (0000ms, 3064ms total)
T34EC 035:381 JLINK_WriteReg(R5, 0x00000000)  returns 0x00 (0000ms, 3064ms total)
T34EC 035:381 JLINK_WriteReg(R6, 0x00000000)  returns 0x00 (0000ms, 3064ms total)
T34EC 035:381 JLINK_WriteReg(R7, 0x00000000)  returns 0x00 (0000ms, 3064ms total)
T34EC 035:381 JLINK_WriteReg(R8, 0x00000000)  returns 0x00 (0000ms, 3064ms total)
T34EC 035:381 JLINK_WriteReg(R9, 0x2000017C)  returns 0x00 (0000ms, 3064ms total)
T34EC 035:381 JLINK_WriteReg(R10, 0x00000000)  returns 0x00 (0000ms, 3064ms total)
T34EC 035:381 JLINK_WriteReg(R11, 0x00000000)  returns 0x00 (0000ms, 3064ms total)
T34EC 035:381 JLINK_WriteReg(R12, 0x00000000)  returns 0x00 (0000ms, 3064ms total)
T34EC 035:381 JLINK_WriteReg(R13 (SP), 0x20001000)  returns 0x00 (0000ms, 3064ms total)
T34EC 035:381 JLINK_WriteReg(R14, 0x20000001)  returns 0x00 (0000ms, 3064ms total)
T34EC 035:381 JLINK_WriteReg(R15 (PC), 0x20000108)  returns 0x00 (0000ms, 3064ms total)
T34EC 035:381 JLINK_WriteReg(XPSR, 0x01000000)  returns 0x00 (0000ms, 3064ms total)
T34EC 035:381 JLINK_WriteReg(MSP, 0x20001000)  returns 0x00 (0000ms, 3064ms total)
T34EC 035:381 JLINK_WriteReg(PSP, 0x20001000)  returns 0x00 (0000ms, 3064ms total)
T34EC 035:381 JLINK_WriteReg(CFBP, 0x00000000)  returns 0x00 (0000ms, 3064ms total)
T34EC 035:381 JLINK_SetBPEx(Addr = 0x20000000, Type = 0xFFFFFFF2)  returns 0x0000000E (0000ms, 3064ms total)
T34EC 035:381 JLINK_Go() -- CPU_ReadMem(4 bytes @ 0xE0001000) (0002ms, 3066ms total)
